
T2AB8 000:286 SEGGER J-Link V4.92 Log File (0001ms, 0265ms total)
T2AB8 000:286 DLL Compiled: Sep 30 2014 09:33:42 (0001ms, 0265ms total)
T2AB8 000:286 Logging started @ 2021-06-29 14:19 (0001ms, 0265ms total)
T2AB8 000:287 JLINK_SetWarnOutHandler(...) (0000ms, 0265ms total)
T2AB8 000:287 JLINK_OpenEx(...)
Firmware: J-Link ARM V8 compiled Sep 22 2014 23:26:43
Hardware: V8.00
Feature(s): RDI,FlashDL,FlashBP,JFlash,GDB  returns O.K. (0258ms, 0523ms total)
T2AB8 000:545 JLINK_SetErrorOutHandler(...) (0000ms, 0523ms total)
T2AB8 000:545 JLINK_ExecCommand("ProjectFile = "D:\smart_grass_cutter\MDK-ARM\JLinkSettings.ini"", ...)Device "UNSPECIFIED" selected (0 KB flash, 0 KB RAM).  returns 0x00 (0001ms, 0524ms total)
T2AB8 000:547 JLINK_ExecCommand("Device = GD32F450ZK", ...)Device "UNSPECIFIED" selected (0 KB flash, 0 KB RAM).  returns 0x00 (0003ms, 0527ms total)
T2AB8 000:550 JLINK_ExecCommand("DisableConnectionTimeout", ...)  returns 0x01 (0000ms, 0527ms total)
T2AB8 000:550 JLINK_GetHardwareVersion()  returns 0x13880 (0000ms, 0527ms total)
T2AB8 000:550 JLINK_GetDLLVersion()  returns 49200 (0000ms, 0527ms total)
T2AB8 000:550 JLINK_GetFirmwareString(...) (0000ms, 0527ms total)
T2AB8 000:556 JLINK_GetDLLVersion()  returns 49200 (0000ms, 0527ms total)
T2AB8 000:556 JLINK_GetCompileDateTime() (0000ms, 0527ms total)
T2AB8 000:557 JLINK_GetFirmwareString(...) (0000ms, 0527ms total)
T2AB8 000:559 JLINK_GetHardwareVersion()  returns 0x13880 (0000ms, 0527ms total)
T2AB8 000:564 JLINK_TIF_Select(JLINKARM_TIF_SWD)  returns 0x00 (0001ms, 0528ms total)
T2AB8 000:565 JLINK_SetSpeed(5000) (0000ms, 0528ms total)
T2AB8 000:565 JLINK_GetId() >0x108 TIF>Found SWD-DP with ID 0x2BA01477 >0x0D TIF> >0x21 TIF> >0x0D TIF> >0x28 TIF> >0x0D TIF> >0x28 TIF> >0x0D TIF> >0x21 TIF> >0x0D TIF> >0x28 TIF> >0x0D TIF> >0x21 TIF> >0x0D TIF> >0x21 TIF> >0x0D TIF> >0x21 TIF> >0x0D TIF> >0x21 TIF> >0x0D TIF> >0x28 TIF> >0x0D TIF> >0x28 TIF> >0x0D TIF> >0x21 TIF> >0x0D TIF> >0x28 TIF> >0x0D TIF> >0x28 TIF> >0x0D TIF> >0x28 TIF> >0x0D TIF> >0x21 TIF> >0x0D TIF> >0x21 TIF> >0x0D TIF> >0x28 TIF> >0x0D TIF> >0x21 TIF> >0x0D TIF>
 >0x21 TIF>Found Cortex-M4 r0p1, Little endian. -- CPU_WriteMem(4 bytes @ 0xE0002000) -- CPU_ReadMem(4 bytes @ 0xE000EDF0) -- CPU_WriteMem(4 bytes @ 0xE000EDF0) -- CPU_ReadMem(4 bytes @ 0xE0002000)FPUnit: 6 code (BP) slots and 2 literal slots -- CPU_ReadMem(4 bytes @ 0xE000EDFC) -- CPU_WriteMem(4 bytes @ 0xE000EDFC) -- CPU_ReadMem(4 bytes @ 0xE0001000) -- CPU_WriteMem(4 bytes @ 0xE0001000) -- CPU_ReadMem(4 bytes @ 0xE000ED88) -- CPU_WriteMem(4 bytes @ 0xE000ED88) -- CPU_ReadMem(4 bytes @ 0xE000ED88)
 -- CPU_WriteMem(4 bytes @ 0xE000ED88) -- CPU_ReadMem(4 bytes @ 0xE00FF010)TPIU fitted. -- CPU_ReadMem(4 bytes @ 0xE00FF014)ETM fitted. -- CPU_ReadMem(4 bytes @ 0xE00FF018) >0x0D TIF> >0x21 TIF>  returns 0x2BA01477 (0020ms, 0548ms total)
T2AB8 000:585 JLINK_GetDLLVersion()  returns 49200 (0000ms, 0548ms total)
T2AB8 000:585 JLINK_CORE_GetFound()  returns 0xE0000FF (0000ms, 0548ms total)
T2AB8 000:585 JLINK_GetDebugInfo(0x100) -- Value=0xE00FF003  returns 0x00 (0000ms, 0548ms total)
T2AB8 000:585 JLINK_GetDebugInfo(0x101)  returns 0xFFFFFFFF (0000ms, 0548ms total)
T2AB8 000:585 JLINK_ReadMem (0xE0041FF0, 0x0010 Bytes, ...) -- CPU is running -- CPU_ReadMem(16 bytes @ 0xE0041FF0) - Data: 00 00 00 00 00 00 00 00 00 00 00 00 00 00 00 00  returns 0x00 (0001ms, 0549ms total)
T2AB8 000:586 JLINK_GetDebugInfo(0x102)  returns 0xFFFFFFFF (0000ms, 0549ms total)
T2AB8 000:586 JLINK_GetDebugInfo(0x103)  returns 0xFFFFFFFF (0000ms, 0549ms total)
T2AB8 000:586 JLINK_ReadMem (0xE0040FF0, 0x0010 Bytes, ...) -- CPU is running -- CPU_ReadMem(16 bytes @ 0xE0040FF0) - Data: 0D 00 00 00 90 00 00 00 05 00 00 00 B1 00 00 00  returns 0x00 (0000ms, 0549ms total)
T2AB8 000:586 JLINK_GetDebugInfo(0x104)  returns 0xFFFFFFFF (0000ms, 0549ms total)
T2AB8 000:586 JLINK_GetDebugInfo(0x105)  returns 0xFFFFFFFF (0000ms, 0549ms total)
T2AB8 000:586 JLINK_GetDebugInfo(0x106)  returns 0xFFFFFFFF (0000ms, 0549ms total)
T2AB8 000:586 JLINK_GetDebugInfo(0x107)  returns 0xFFFFFFFF (0000ms, 0549ms total)
T2AB8 000:586 JLINK_GetDebugInfo(0x10C)  returns 0xFFFFFFFF (0000ms, 0549ms total)
T2AB8 000:586 JLINK_ReadMemU32(0xE000EF40, 0x0001 Items, ...) -- CPU is running -- CPU_ReadMem(4 bytes @ 0xE000EF40) - Data: 21 00 11 10  returns 0x01 (0001ms, 0550ms total)
T2AB8 000:587 JLINK_ReadMemU32(0xE000EF44, 0x0001 Items, ...) -- CPU is running -- CPU_ReadMem(4 bytes @ 0xE000EF44) - Data: 11 00 00 11  returns 0x01 (0000ms, 0550ms total)
T2AB8 000:587 JLINK_ReadMemU32(0xE000ED00, 0x0001 Items, ...) -- CPU is running -- CPU_ReadMem(4 bytes @ 0xE000ED00) - Data: 41 C2 0F 41  returns 0x01 (0000ms, 0550ms total)
T2AB8 000:587 JLINK_SetResetType(JLINKARM_RESET_TYPE_NORMAL)  returns JLINKARM_RESET_TYPE_NORMAL (0000ms, 0550ms total)
T2AB8 000:587 JLINK_Reset() -- CPU is running -- CPU_WriteMem(4 bytes @ 0xE000EDF0) -- CPU is running -- CPU_WriteMem(4 bytes @ 0xE000EDFC) >0x35 TIF> -- CPU is running -- CPU_WriteMem(4 bytes @ 0xE000ED0C) -- CPU is running -- CPU_ReadMem(4 bytes @ 0xE000EDF0) -- CPU is running -- CPU_ReadMem(4 bytes @ 0xE000EDF0) -- CPU is running -- CPU_WriteMem(4 bytes @ 0xE000EDF0) -- CPU is running -- CPU_WriteMem(4 bytes @ 0xE000EDFC) -- CPU is running -- CPU_ReadMem(4 bytes @ 0xE000EDF0)
 -- CPU_WriteMem(4 bytes @ 0xE0002000) -- CPU_ReadMem(4 bytes @ 0xE000EDFC) -- CPU_ReadMem(4 bytes @ 0xE0001000) (0017ms, 0567ms total)
T2AB8 000:604 JLINK_Halt()  returns 0x00 (0000ms, 0567ms total)
T2AB8 000:604 JLINK_IsHalted()  returns TRUE (0000ms, 0567ms total)
T2AB8 000:604 JLINK_ReadMemU32(0xE000EDF0, 0x0001 Items, ...) -- CPU_ReadMem(4 bytes @ 0xE000EDF0) - Data: 03 00 03 00  returns 0x01 (0001ms, 0568ms total)
T2AB8 000:605 JLINK_WriteU32(0xE000EDF0, 0xA05F0003) -- CPU_WriteMem(4 bytes @ 0xE000EDF0)  returns 0x00 (0000ms, 0568ms total)
T2AB8 000:605 JLINK_WriteU32(0xE000EDFC, 0x01000000) -- CPU_WriteMem(4 bytes @ 0xE000EDFC)  returns 0x00 (0000ms, 0568ms total)
T2AB8 000:609 JLINK_GetHWStatus(...)  returns 0x00 (0000ms, 0568ms total)
T2AB8 000:611 JLINK_GetNumBPUnits(Type = 0xFFFFFF00)  returns 0x06 (0000ms, 0568ms total)
T2AB8 000:611 JLINK_GetNumBPUnits(Type = 0xF0)  returns 0x2000 (0000ms, 0568ms total)
T2AB8 000:611 JLINK_GetNumWPUnits()  returns 0x04 (0000ms, 0568ms total)
T2AB8 000:613 JLINK_GetSpeed()  returns 0xFA0 (0000ms, 0568ms total)
T2AB8 000:616 JLINK_ReadMemU32(0xE000E004, 0x0001 Items, ...) -- CPU_ReadMem(4 bytes @ 0xE000E004) - Data: 02 00 00 00  returns 0x01 (0000ms, 0568ms total)
T2AB8 000:616 JLINK_ReadMemU32(0xE000E004, 0x0001 Items, ...) -- CPU_ReadMem(4 bytes @ 0xE000E004) - Data: 02 00 00 00  returns 0x01 (0001ms, 0569ms total)
T2AB8 000:617 JLINK_WriteMem(0xE0001000, 0x001C Bytes, ...) - Data: 01 00 00 00 00 00 00 00 00 00 00 00 00 00 00 00 ... -- CPU_WriteMem(28 bytes @ 0xE0001000)  returns 0x1C (0000ms, 0569ms total)
T2AB8 000:617 JLINK_ReadMem (0xE0001000, 0x001C Bytes, ...) -- CPU_ReadMem(28 bytes @ 0xE0001000) - Data: 01 00 00 40 00 00 00 00 00 00 00 00 00 00 00 00 ...  returns 0x00 (0001ms, 0570ms total)
T2AB8 000:618 JLINK_Halt()  returns 0x00 (0000ms, 0570ms total)
T2AB8 000:618 JLINK_IsHalted()  returns TRUE (0000ms, 0570ms total)
T2AB8 000:619 JLINK_WriteMem(0x20000000, 0x01D0 Bytes, ...) - Data: 00 BE 0A E0 0D 78 2D 06 68 40 08 24 40 00 00 D3 ... -- CPU_WriteMem(464 bytes @ 0x20000000)  returns 0x1D0 (0004ms, 0574ms total)
T2AB8 000:623 JLINK_WriteReg(R0, 0x08000000)  returns 0x00 (0000ms, 0574ms total)
T2AB8 000:623 JLINK_WriteReg(R1, 0x00B71B00)  returns 0x00 (0000ms, 0574ms total)
T2AB8 000:623 JLINK_WriteReg(R2, 0x00000001)  returns 0x00 (0000ms, 0574ms total)
T2AB8 000:623 JLINK_WriteReg(R3, 0x00000000)  returns 0x00 (0000ms, 0574ms total)
T2AB8 000:623 JLINK_WriteReg(R4, 0x00000000)  returns 0x00 (0000ms, 0574ms total)
T2AB8 000:623 JLINK_WriteReg(R5, 0x00000000)  returns 0x00 (0000ms, 0574ms total)
T2AB8 000:623 JLINK_WriteReg(R6, 0x00000000)  returns 0x00 (0000ms, 0574ms total)
T2AB8 000:623 JLINK_WriteReg(R7, 0x00000000)  returns 0x00 (0000ms, 0574ms total)
T2AB8 000:623 JLINK_WriteReg(R8, 0x00000000)  returns 0x00 (0000ms, 0574ms total)
T2AB8 000:623 JLINK_WriteReg(R9, 0x200001CC)  returns 0x00 (0000ms, 0574ms total)
T2AB8 000:623 JLINK_WriteReg(R10, 0x00000000)  returns 0x00 (0000ms, 0574ms total)
T2AB8 000:623 JLINK_WriteReg(R11, 0x00000000)  returns 0x00 (0000ms, 0574ms total)
T2AB8 000:623 JLINK_WriteReg(R12, 0x00000000)  returns 0x00 (0000ms, 0574ms total)
T2AB8 000:623 JLINK_WriteReg(R13 (SP), 0x20001000)  returns 0x00 (0000ms, 0574ms total)
T2AB8 000:623 JLINK_WriteReg(R14, 0x20000001)  returns 0x00 (0000ms, 0574ms total)
T2AB8 000:623 JLINK_WriteReg(R15 (PC), 0x20000070)  returns 0x00 (0000ms, 0574ms total)
T2AB8 000:623 JLINK_WriteReg(XPSR, 0x01000000)  returns 0x00 (0000ms, 0574ms total)
T2AB8 000:623 JLINK_WriteReg(MSP, 0x20001000)  returns 0x00 (0000ms, 0574ms total)
T2AB8 000:623 JLINK_WriteReg(PSP, 0x20001000)  returns 0x00 (0000ms, 0574ms total)
T2AB8 000:623 JLINK_WriteReg(CFBP, 0x00000000)  returns 0x00 (0000ms, 0574ms total)
T2AB8 000:623 JLINK_SetBPEx(Addr = 0x20000000, Type = 0xFFFFFFF2) -- CPU_ReadMem(4 bytes @ 0x20000000) -- CPU_WriteMem(4 bytes @ 0x20000000) -- CPU_ReadMem(4 bytes @ 0x20000000) -- CPU_WriteMem(4 bytes @ 0x20000000) -- CPU_ReadMem(2 bytes @ 0x20000000)  returns 0x00000001 (0002ms, 0576ms total)
T2AB8 000:625 JLINK_Go() -- CPU_WriteMem(2 bytes @ 0x20000000) -- CPU_WriteMem(4 bytes @ 0xE0002008) -- CPU_WriteMem(4 bytes @ 0xE000200C) -- CPU_WriteMem(4 bytes @ 0xE0002010) -- CPU_WriteMem(4 bytes @ 0xE0002014) -- CPU_WriteMem(4 bytes @ 0xE0002018) -- CPU_WriteMem(4 bytes @ 0xE000201C) -- CPU_WriteMem(4 bytes @ 0xE0001004) (0005ms, 0581ms total)
T2AB8 000:630 JLINK_IsHalted() -- CPU_ReadMem(2 bytes @ 0x20000000)  returns TRUE (0002ms, 0583ms total)
T2AB8 000:632 JLINK_ReadReg(R15 (PC))  returns 0x20000000 (0000ms, 0581ms total)
T2AB8 000:632 JLINK_ClrBPEx(BPHandle = 0x00000001)  returns 0x00 (0000ms, 0581ms total)
T2AB8 000:632 JLINK_ReadReg(R0)  returns 0x00000000 (0000ms, 0581ms total)
T2AB8 000:632 JLINK_WriteReg(R0, 0x08000000)  returns 0x00 (0000ms, 0581ms total)
T2AB8 000:632 JLINK_WriteReg(R1, 0x00004000)  returns 0x00 (0000ms, 0581ms total)
T2AB8 000:632 JLINK_WriteReg(R2, 0x000000FF)  returns 0x00 (0000ms, 0581ms total)
T2AB8 000:632 JLINK_WriteReg(R3, 0x00000000)  returns 0x00 (0000ms, 0581ms total)
T2AB8 000:632 JLINK_WriteReg(R4, 0x00000000)  returns 0x00 (0000ms, 0581ms total)
T2AB8 000:632 JLINK_WriteReg(R5, 0x00000000)  returns 0x00 (0000ms, 0581ms total)
T2AB8 000:632 JLINK_WriteReg(R6, 0x00000000)  returns 0x00 (0000ms, 0581ms total)
T2AB8 000:632 JLINK_WriteReg(R7, 0x00000000)  returns 0x00 (0000ms, 0581ms total)
T2AB8 000:632 JLINK_WriteReg(R8, 0x00000000)  returns 0x00 (0000ms, 0581ms total)
T2AB8 000:632 JLINK_WriteReg(R9, 0x200001CC)  returns 0x00 (0000ms, 0581ms total)
T2AB8 000:632 JLINK_WriteReg(R10, 0x00000000)  returns 0x00 (0000ms, 0581ms total)
T2AB8 000:632 JLINK_WriteReg(R11, 0x00000000)  returns 0x00 (0000ms, 0581ms total)
T2AB8 000:632 JLINK_WriteReg(R12, 0x00000000)  returns 0x00 (0000ms, 0581ms total)
T2AB8 000:632 JLINK_WriteReg(R13 (SP), 0x20001000)  returns 0x00 (0000ms, 0581ms total)
T2AB8 000:632 JLINK_WriteReg(R14, 0x20000001)  returns 0x00 (0001ms, 0582ms total)
T2AB8 000:633 JLINK_WriteReg(R15 (PC), 0x20000020)  returns 0x00 (0000ms, 0582ms total)
T2AB8 000:633 JLINK_WriteReg(XPSR, 0x01000000)  returns 0x00 (0000ms, 0582ms total)
T2AB8 000:633 JLINK_WriteReg(MSP, 0x20001000)  returns 0x00 (0000ms, 0582ms total)
T2AB8 000:633 JLINK_WriteReg(PSP, 0x20001000)  returns 0x00 (0000ms, 0582ms total)
T2AB8 000:633 JLINK_WriteReg(CFBP, 0x00000000)  returns 0x00 (0000ms, 0582ms total)
T2AB8 000:633 JLINK_SetBPEx(Addr = 0x20000000, Type = 0xFFFFFFF2)  returns 0x00000002 (0000ms, 0582ms total)
T2AB8 000:633 JLINK_Go() (0001ms, 0583ms total)
T2AB8 000:634 JLINK_IsHalted() -- CPU_ReadMem(2 bytes @ 0x20000000)  returns TRUE (0002ms, 0585ms total)
T2AB8 000:636 JLINK_ReadReg(R15 (PC))  returns 0x20000000 (0000ms, 0583ms total)
T2AB8 000:636 JLINK_ClrBPEx(BPHandle = 0x00000002)  returns 0x00 (0000ms, 0583ms total)
T2AB8 000:636 JLINK_ReadReg(R0)  returns 0x00000001 (0000ms, 0583ms total)
T2AB8 000:636 JLINK_WriteReg(R0, 0x08000000)  returns 0x00 (0000ms, 0583ms total)
T2AB8 000:636 JLINK_WriteReg(R1, 0x00004000)  returns 0x00 (0000ms, 0583ms total)
T2AB8 000:636 JLINK_WriteReg(R2, 0x000000FF)  returns 0x00 (0000ms, 0583ms total)
T2AB8 000:636 JLINK_WriteReg(R3, 0x00000000)  returns 0x00 (0000ms, 0583ms total)
T2AB8 000:636 JLINK_WriteReg(R4, 0x00000000)  returns 0x00 (0000ms, 0583ms total)
T2AB8 000:636 JLINK_WriteReg(R5, 0x00000000)  returns 0x00 (0000ms, 0583ms total)
T2AB8 000:636 JLINK_WriteReg(R6, 0x00000000)  returns 0x00 (0000ms, 0583ms total)
T2AB8 000:636 JLINK_WriteReg(R7, 0x00000000)  returns 0x00 (0000ms, 0583ms total)
T2AB8 000:636 JLINK_WriteReg(R8, 0x00000000)  returns 0x00 (0000ms, 0583ms total)
T2AB8 000:636 JLINK_WriteReg(R9, 0x200001CC)  returns 0x00 (0000ms, 0583ms total)
T2AB8 000:636 JLINK_WriteReg(R10, 0x00000000)  returns 0x00 (0000ms, 0583ms total)
T2AB8 000:636 JLINK_WriteReg(R11, 0x00000000)  returns 0x00 (0000ms, 0583ms total)
T2AB8 000:636 JLINK_WriteReg(R12, 0x00000000)  returns 0x00 (0000ms, 0583ms total)
T2AB8 000:636 JLINK_WriteReg(R13 (SP), 0x20001000)  returns 0x00 (0000ms, 0583ms total)
T2AB8 000:636 JLINK_WriteReg(R14, 0x20000001)  returns 0x00 (0000ms, 0583ms total)
T2AB8 000:636 JLINK_WriteReg(R15 (PC), 0x20000100)  returns 0x00 (0000ms, 0583ms total)
T2AB8 000:636 JLINK_WriteReg(XPSR, 0x01000000)  returns 0x00 (0000ms, 0583ms total)
T2AB8 000:636 JLINK_WriteReg(MSP, 0x20001000)  returns 0x00 (0000ms, 0583ms total)
T2AB8 000:636 JLINK_WriteReg(PSP, 0x20001000)  returns 0x00 (0000ms, 0583ms total)
T2AB8 000:636 JLINK_WriteReg(CFBP, 0x00000000)  returns 0x00 (0000ms, 0583ms total)
T2AB8 000:636 JLINK_SetBPEx(Addr = 0x20000000, Type = 0xFFFFFFF2)  returns 0x00000003 (0000ms, 0583ms total)
T2AB8 000:636 JLINK_Go() (0001ms, 0584ms total)
T2AB8 000:637 JLINK_IsHalted()  returns FALSE (0000ms, 0584ms total)
T2AB8 000:690 JLINK_IsHalted()  returns FALSE (0000ms, 0584ms total)
T2AB8 000:692 JLINK_IsHalted()  returns FALSE (0000ms, 0584ms total)
T2AB8 000:695 JLINK_IsHalted()  returns FALSE (0000ms, 0584ms total)
T2AB8 000:696 JLINK_IsHalted()  returns FALSE (0001ms, 0585ms total)
T2AB8 000:698 JLINK_IsHalted()  returns FALSE (0000ms, 0584ms total)
T2AB8 000:700 JLINK_IsHalted()  returns FALSE (0000ms, 0584ms total)
T2AB8 000:702 JLINK_IsHalted()  returns FALSE (0001ms, 0585ms total)
T2AB8 000:704 JLINK_IsHalted()  returns FALSE (0000ms, 0584ms total)
T2AB8 000:707 JLINK_IsHalted()  returns FALSE (0000ms, 0584ms total)
T2AB8 000:709 JLINK_IsHalted()  returns FALSE (0000ms, 0584ms total)
T2AB8 000:711 JLINK_IsHalted()  returns FALSE (0000ms, 0584ms total)
T2AB8 000:713 JLINK_IsHalted()  returns FALSE (0000ms, 0584ms total)
T2AB8 000:715 JLINK_IsHalted()  returns FALSE (0000ms, 0584ms total)
T2AB8 000:717 JLINK_IsHalted()  returns FALSE (0000ms, 0584ms total)
T2AB8 000:719 JLINK_IsHalted()  returns FALSE (0000ms, 0584ms total)
T2AB8 000:720 JLINK_IsHalted()  returns FALSE (0001ms, 0585ms total)
T2AB8 000:722 JLINK_IsHalted()  returns FALSE (0001ms, 0585ms total)
T2AB8 000:724 JLINK_IsHalted()  returns FALSE (0001ms, 0585ms total)
T2AB8 000:726 JLINK_IsHalted()  returns FALSE (0001ms, 0585ms total)
T2AB8 000:728 JLINK_IsHalted()  returns FALSE (0000ms, 0584ms total)
T2AB8 000:730 JLINK_IsHalted()  returns FALSE (0001ms, 0585ms total)
T2AB8 000:733 JLINK_IsHalted()  returns FALSE (0000ms, 0584ms total)
T2AB8 000:735 JLINK_IsHalted()  returns FALSE (0001ms, 0585ms total)
T2AB8 000:737 JLINK_IsHalted()  returns FALSE (0000ms, 0584ms total)
T2AB8 000:739 JLINK_IsHalted()  returns FALSE (0000ms, 0584ms total)
T2AB8 000:742 JLINK_IsHalted()  returns FALSE (0000ms, 0584ms total)
T2AB8 000:743 JLINK_IsHalted()  returns FALSE (0000ms, 0584ms total)
T2AB8 000:745 JLINK_IsHalted()  returns FALSE (0001ms, 0585ms total)
T2AB8 000:747 JLINK_IsHalted()  returns FALSE (0000ms, 0584ms total)
T2AB8 000:749 JLINK_IsHalted()  returns FALSE (0000ms, 0584ms total)
T2AB8 000:751 JLINK_IsHalted()  returns FALSE (0000ms, 0584ms total)
T2AB8 000:753 JLINK_IsHalted()  returns FALSE (0000ms, 0584ms total)
T2AB8 000:757 JLINK_IsHalted()  returns FALSE (0000ms, 0584ms total)
T2AB8 000:759 JLINK_IsHalted()  returns FALSE (0001ms, 0585ms total)
T2AB8 000:761 JLINK_IsHalted()  returns FALSE (0000ms, 0584ms total)
T2AB8 000:763 JLINK_IsHalted()  returns FALSE (0000ms, 0584ms total)
T2AB8 000:765 JLINK_IsHalted()  returns FALSE (0000ms, 0584ms total)
T2AB8 000:767 JLINK_IsHalted()  returns FALSE (0000ms, 0584ms total)
T2AB8 000:769 JLINK_IsHalted()  returns FALSE (0001ms, 0585ms total)
T2AB8 000:771 JLINK_IsHalted()  returns FALSE (0001ms, 0585ms total)
T2AB8 000:775 JLINK_IsHalted()  returns FALSE (0000ms, 0584ms total)
T2AB8 000:777 JLINK_IsHalted()  returns FALSE (0001ms, 0585ms total)
T2AB8 000:779 JLINK_IsHalted()  returns FALSE (0001ms, 0585ms total)
T2AB8 000:781 JLINK_IsHalted()  returns FALSE (0001ms, 0585ms total)
T2AB8 000:783 JLINK_IsHalted()  returns FALSE (0000ms, 0584ms total)
T2AB8 000:785 JLINK_IsHalted()  returns FALSE (0000ms, 0584ms total)
T2AB8 000:790 JLINK_IsHalted()  returns FALSE (0000ms, 0584ms total)
T2AB8 000:792 JLINK_IsHalted()  returns FALSE (0001ms, 0585ms total)
T2AB8 000:794 JLINK_IsHalted()  returns FALSE (0001ms, 0585ms total)
T2AB8 000:796 JLINK_IsHalted()  returns FALSE (0001ms, 0585ms total)
T2AB8 000:799 JLINK_IsHalted()  returns FALSE (0000ms, 0584ms total)
T2AB8 000:801 JLINK_IsHalted()  returns FALSE (0000ms, 0584ms total)
T2AB8 000:803 JLINK_IsHalted()  returns FALSE (0000ms, 0584ms total)
T2AB8 000:805 JLINK_IsHalted() -- CPU_ReadMem(2 bytes @ 0x20000000)  returns TRUE (0002ms, 0586ms total)
T2AB8 000:807 JLINK_ReadReg(R15 (PC))  returns 0x20000000 (0000ms, 0584ms total)
T2AB8 000:807 JLINK_ClrBPEx(BPHandle = 0x00000003)  returns 0x00 (0000ms, 0584ms total)
T2AB8 000:807 JLINK_ReadReg(R0)  returns 0x00000000 (0000ms, 0584ms total)
T2AB8 000:807 JLINK_WriteReg(R0, 0x08004000)  returns 0x00 (0000ms, 0584ms total)
T2AB8 000:807 JLINK_WriteReg(R1, 0x00004000)  returns 0x00 (0000ms, 0584ms total)
T2AB8 000:807 JLINK_WriteReg(R2, 0x000000FF)  returns 0x00 (0000ms, 0584ms total)
T2AB8 000:807 JLINK_WriteReg(R3, 0x00000000)  returns 0x00 (0000ms, 0584ms total)
T2AB8 000:807 JLINK_WriteReg(R4, 0x00000000)  returns 0x00 (0000ms, 0584ms total)
T2AB8 000:807 JLINK_WriteReg(R5, 0x00000000)  returns 0x00 (0000ms, 0584ms total)
T2AB8 000:807 JLINK_WriteReg(R6, 0x00000000)  returns 0x00 (0000ms, 0584ms total)
T2AB8 000:807 JLINK_WriteReg(R7, 0x00000000)  returns 0x00 (0000ms, 0584ms total)
T2AB8 000:807 JLINK_WriteReg(R8, 0x00000000)  returns 0x00 (0000ms, 0584ms total)
T2AB8 000:807 JLINK_WriteReg(R9, 0x200001CC)  returns 0x00 (0000ms, 0584ms total)
T2AB8 000:807 JLINK_WriteReg(R10, 0x00000000)  returns 0x00 (0000ms, 0584ms total)
T2AB8 000:807 JLINK_WriteReg(R11, 0x00000000)  returns 0x00 (0000ms, 0584ms total)
T2AB8 000:807 JLINK_WriteReg(R12, 0x00000000)  returns 0x00 (0000ms, 0584ms total)
T2AB8 000:807 JLINK_WriteReg(R13 (SP), 0x20001000)  returns 0x00 (0000ms, 0584ms total)
T2AB8 000:807 JLINK_WriteReg(R14, 0x20000001)  returns 0x00 (0000ms, 0584ms total)
T2AB8 000:807 JLINK_WriteReg(R15 (PC), 0x20000020)  returns 0x00 (0000ms, 0584ms total)
T2AB8 000:807 JLINK_WriteReg(XPSR, 0x01000000)  returns 0x00 (0000ms, 0584ms total)
T2AB8 000:807 JLINK_WriteReg(MSP, 0x20001000)  returns 0x00 (0000ms, 0584ms total)
T2AB8 000:807 JLINK_WriteReg(PSP, 0x20001000)  returns 0x00 (0000ms, 0584ms total)
T2AB8 000:807 JLINK_WriteReg(CFBP, 0x00000000)  returns 0x00 (0000ms, 0584ms total)
T2AB8 000:807 JLINK_SetBPEx(Addr = 0x20000000, Type = 0xFFFFFFF2)  returns 0x00000004 (0000ms, 0584ms total)
T2AB8 000:807 JLINK_Go() (0001ms, 0585ms total)
T2AB8 000:808 JLINK_IsHalted() -- CPU_ReadMem(2 bytes @ 0x20000000)  returns TRUE (0003ms, 0588ms total)
T2AB8 000:811 JLINK_ReadReg(R15 (PC))  returns 0x20000000 (0000ms, 0585ms total)
T2AB8 000:811 JLINK_ClrBPEx(BPHandle = 0x00000004)  returns 0x00 (0000ms, 0585ms total)
T2AB8 000:811 JLINK_ReadReg(R0)  returns 0x00000001 (0000ms, 0585ms total)
T2AB8 000:811 JLINK_WriteReg(R0, 0x08004000)  returns 0x00 (0000ms, 0585ms total)
T2AB8 000:811 JLINK_WriteReg(R1, 0x00004000)  returns 0x00 (0000ms, 0585ms total)
T2AB8 000:811 JLINK_WriteReg(R2, 0x000000FF)  returns 0x00 (0000ms, 0585ms total)
T2AB8 000:811 JLINK_WriteReg(R3, 0x00000000)  returns 0x00 (0000ms, 0585ms total)
T2AB8 000:811 JLINK_WriteReg(R4, 0x00000000)  returns 0x00 (0000ms, 0585ms total)
T2AB8 000:811 JLINK_WriteReg(R5, 0x00000000)  returns 0x00 (0000ms, 0585ms total)
T2AB8 000:811 JLINK_WriteReg(R6, 0x00000000)  returns 0x00 (0000ms, 0585ms total)
T2AB8 000:811 JLINK_WriteReg(R7, 0x00000000)  returns 0x00 (0000ms, 0585ms total)
T2AB8 000:811 JLINK_WriteReg(R8, 0x00000000)  returns 0x00 (0000ms, 0585ms total)
T2AB8 000:811 JLINK_WriteReg(R9, 0x200001CC)  returns 0x00 (0000ms, 0585ms total)
T2AB8 000:811 JLINK_WriteReg(R10, 0x00000000)  returns 0x00 (0000ms, 0585ms total)
T2AB8 000:811 JLINK_WriteReg(R11, 0x00000000)  returns 0x00 (0000ms, 0585ms total)
T2AB8 000:811 JLINK_WriteReg(R12, 0x00000000)  returns 0x00 (0000ms, 0585ms total)
T2AB8 000:811 JLINK_WriteReg(R13 (SP), 0x20001000)  returns 0x00 (0000ms, 0585ms total)
T2AB8 000:811 JLINK_WriteReg(R14, 0x20000001)  returns 0x00 (0000ms, 0585ms total)
T2AB8 000:811 JLINK_WriteReg(R15 (PC), 0x20000100)  returns 0x00 (0001ms, 0586ms total)
T2AB8 000:812 JLINK_WriteReg(XPSR, 0x01000000)  returns 0x00 (0000ms, 0586ms total)
T2AB8 000:812 JLINK_WriteReg(MSP, 0x20001000)  returns 0x00 (0000ms, 0586ms total)
T2AB8 000:812 JLINK_WriteReg(PSP, 0x20001000)  returns 0x00 (0000ms, 0586ms total)
T2AB8 000:812 JLINK_WriteReg(CFBP, 0x00000000)  returns 0x00 (0000ms, 0586ms total)
T2AB8 000:812 JLINK_SetBPEx(Addr = 0x20000000, Type = 0xFFFFFFF2)  returns 0x00000005 (0000ms, 0586ms total)
T2AB8 000:812 JLINK_Go() (0001ms, 0587ms total)
T2AB8 000:813 JLINK_IsHalted()  returns FALSE (0000ms, 0587ms total)
T2AB8 000:815 JLINK_IsHalted()  returns FALSE (0000ms, 0587ms total)
T2AB8 000:817 JLINK_IsHalted()  returns FALSE (0000ms, 0587ms total)
T2AB8 000:819 JLINK_IsHalted()  returns FALSE (0001ms, 0588ms total)
T2AB8 000:822 JLINK_IsHalted()  returns FALSE (0000ms, 0587ms total)
T2AB8 000:824 JLINK_IsHalted()  returns FALSE (0000ms, 0587ms total)
T2AB8 000:827 JLINK_IsHalted()  returns FALSE (0000ms, 0587ms total)
T2AB8 000:829 JLINK_IsHalted()  returns FALSE (0000ms, 0587ms total)
T2AB8 000:831 JLINK_IsHalted()  returns FALSE (0000ms, 0587ms total)
T2AB8 000:833 JLINK_IsHalted()  returns FALSE (0000ms, 0587ms total)
T2AB8 000:834 JLINK_IsHalted()  returns FALSE (0001ms, 0588ms total)
T2AB8 000:836 JLINK_IsHalted()  returns FALSE (0000ms, 0587ms total)
T2AB8 000:838 JLINK_IsHalted()  returns FALSE (0000ms, 0587ms total)
T2AB8 000:840 JLINK_IsHalted()  returns FALSE (0001ms, 0588ms total)
T2AB8 000:842 JLINK_IsHalted()  returns FALSE (0001ms, 0588ms total)
T2AB8 000:844 JLINK_IsHalted()  returns FALSE (0000ms, 0587ms total)
T2AB8 000:847 JLINK_IsHalted()  returns FALSE (0000ms, 0587ms total)
T2AB8 000:849 JLINK_IsHalted()  returns FALSE (0000ms, 0587ms total)
T2AB8 000:851 JLINK_IsHalted()  returns FALSE (0000ms, 0587ms total)
T2AB8 000:853 JLINK_IsHalted()  returns FALSE (0000ms, 0587ms total)
T2AB8 000:856 JLINK_IsHalted()  returns FALSE (0000ms, 0587ms total)
T2AB8 000:857 JLINK_IsHalted()  returns FALSE (0001ms, 0588ms total)
T2AB8 000:860 JLINK_IsHalted()  returns FALSE (0001ms, 0588ms total)
T2AB8 000:863 JLINK_IsHalted()  returns FALSE (0000ms, 0587ms total)
T2AB8 000:865 JLINK_IsHalted()  returns FALSE (0000ms, 0587ms total)
T2AB8 000:868 JLINK_IsHalted()  returns FALSE (0000ms, 0587ms total)
T2AB8 000:870 JLINK_IsHalted()  returns FALSE (0000ms, 0587ms total)
T2AB8 000:872 JLINK_IsHalted()  returns FALSE (0001ms, 0588ms total)
T2AB8 000:874 JLINK_IsHalted()  returns FALSE (0001ms, 0588ms total)
T2AB8 000:877 JLINK_IsHalted()  returns FALSE (0001ms, 0588ms total)
T2AB8 000:883 JLINK_IsHalted()  returns FALSE (0001ms, 0588ms total)
T2AB8 000:885 JLINK_IsHalted()  returns FALSE (0001ms, 0588ms total)
T2AB8 000:888 JLINK_IsHalted()  returns FALSE (0001ms, 0588ms total)
T2AB8 000:890 JLINK_IsHalted()  returns FALSE (0000ms, 0587ms total)
T2AB8 000:892 JLINK_IsHalted()  returns FALSE (0000ms, 0587ms total)
T2AB8 000:894 JLINK_IsHalted()  returns FALSE (0000ms, 0587ms total)
T2AB8 000:896 JLINK_IsHalted()  returns FALSE (0000ms, 0587ms total)
T2AB8 000:899 JLINK_IsHalted()  returns FALSE (0000ms, 0587ms total)
T2AB8 000:901 JLINK_IsHalted()  returns FALSE (0000ms, 0587ms total)
T2AB8 000:903 JLINK_IsHalted()  returns FALSE (0000ms, 0587ms total)
T2AB8 000:905 JLINK_IsHalted()  returns FALSE (0000ms, 0587ms total)
T2AB8 000:907 JLINK_IsHalted()  returns FALSE (0000ms, 0587ms total)
T2AB8 000:909 JLINK_IsHalted()  returns FALSE (0001ms, 0588ms total)
T2AB8 000:912 JLINK_IsHalted() -- CPU_ReadMem(2 bytes @ 0x20000000)  returns TRUE (0003ms, 0590ms total)
T2AB8 000:915 JLINK_ReadReg(R15 (PC))  returns 0x20000000 (0000ms, 0587ms total)
T2AB8 000:915 JLINK_ClrBPEx(BPHandle = 0x00000005)  returns 0x00 (0000ms, 0587ms total)
T2AB8 000:915 JLINK_ReadReg(R0)  returns 0x00000000 (0000ms, 0587ms total)
T2AB8 000:916 JLINK_WriteReg(R0, 0x00000001)  returns 0x00 (0000ms, 0587ms total)
T2AB8 000:916 JLINK_WriteReg(R1, 0x00004000)  returns 0x00 (0000ms, 0587ms total)
T2AB8 000:916 JLINK_WriteReg(R2, 0x000000FF)  returns 0x00 (0000ms, 0587ms total)
T2AB8 000:916 JLINK_WriteReg(R3, 0x00000000)  returns 0x00 (0000ms, 0587ms total)
T2AB8 000:916 JLINK_WriteReg(R4, 0x00000000)  returns 0x00 (0000ms, 0587ms total)
T2AB8 000:916 JLINK_WriteReg(R5, 0x00000000)  returns 0x00 (0000ms, 0587ms total)
T2AB8 000:916 JLINK_WriteReg(R6, 0x00000000)  returns 0x00 (0000ms, 0587ms total)
T2AB8 000:916 JLINK_WriteReg(R7, 0x00000000)  returns 0x00 (0000ms, 0587ms total)
T2AB8 000:916 JLINK_WriteReg(R8, 0x00000000)  returns 0x00 (0000ms, 0587ms total)
T2AB8 000:916 JLINK_WriteReg(R9, 0x200001CC)  returns 0x00 (0000ms, 0587ms total)
T2AB8 000:916 JLINK_WriteReg(R10, 0x00000000)  returns 0x00 (0000ms, 0587ms total)
T2AB8 000:916 JLINK_WriteReg(R11, 0x00000000)  returns 0x00 (0001ms, 0588ms total)
T2AB8 000:917 JLINK_WriteReg(R12, 0x00000000)  returns 0x00 (0000ms, 0588ms total)
T2AB8 000:917 JLINK_WriteReg(R13 (SP), 0x20001000)  returns 0x00 (0000ms, 0588ms total)
T2AB8 000:917 JLINK_WriteReg(R14, 0x20000001)  returns 0x00 (0000ms, 0588ms total)
T2AB8 000:917 JLINK_WriteReg(R15 (PC), 0x200000AC)  returns 0x00 (0000ms, 0588ms total)
T2AB8 000:917 JLINK_WriteReg(XPSR, 0x01000000)  returns 0x00 (0000ms, 0588ms total)
T2AB8 000:917 JLINK_WriteReg(MSP, 0x20001000)  returns 0x00 (0000ms, 0588ms total)
T2AB8 000:917 JLINK_WriteReg(PSP, 0x20001000)  returns 0x00 (0000ms, 0588ms total)
T2AB8 000:917 JLINK_WriteReg(CFBP, 0x00000000)  returns 0x00 (0000ms, 0588ms total)
T2AB8 000:917 JLINK_SetBPEx(Addr = 0x20000000, Type = 0xFFFFFFF2)  returns 0x00000006 (0000ms, 0588ms total)
T2AB8 000:917 JLINK_Go() (0002ms, 0590ms total)
T2AB8 000:919 JLINK_IsHalted() -- CPU_ReadMem(2 bytes @ 0x20000000)  returns TRUE (0004ms, 0594ms total)
T2AB8 000:923 JLINK_ReadReg(R15 (PC))  returns 0x20000000 (0000ms, 0590ms total)
T2AB8 000:923 JLINK_ClrBPEx(BPHandle = 0x00000006)  returns 0x00 (0000ms, 0590ms total)
T2AB8 000:923 JLINK_ReadReg(R0)  returns 0x00000000 (0000ms, 0590ms total)
T2AB8 000:988 JLINK_WriteMem(0x20000000, 0x01D0 Bytes, ...) - Data: 00 BE 0A E0 0D 78 2D 06 68 40 08 24 40 00 00 D3 ... -- CPU_WriteMem(464 bytes @ 0x20000000)  returns 0x1D0 (0004ms, 0594ms total)
T2AB8 000:992 JLINK_WriteReg(R0, 0x08000000)  returns 0x00 (0000ms, 0594ms total)
T2AB8 000:992 JLINK_WriteReg(R1, 0x00B71B00)  returns 0x00 (0000ms, 0594ms total)
T2AB8 000:992 JLINK_WriteReg(R2, 0x00000002)  returns 0x00 (0000ms, 0594ms total)
T2AB8 000:992 JLINK_WriteReg(R3, 0x00000000)  returns 0x00 (0000ms, 0594ms total)
T2AB8 000:992 JLINK_WriteReg(R4, 0x00000000)  returns 0x00 (0000ms, 0594ms total)
T2AB8 000:992 JLINK_WriteReg(R5, 0x00000000)  returns 0x00 (0000ms, 0594ms total)
T2AB8 000:992 JLINK_WriteReg(R6, 0x00000000)  returns 0x00 (0000ms, 0594ms total)
T2AB8 000:992 JLINK_WriteReg(R7, 0x00000000)  returns 0x00 (0000ms, 0594ms total)
T2AB8 000:992 JLINK_WriteReg(R8, 0x00000000)  returns 0x00 (0000ms, 0594ms total)
T2AB8 000:992 JLINK_WriteReg(R9, 0x200001CC)  returns 0x00 (0000ms, 0594ms total)
T2AB8 000:992 JLINK_WriteReg(R10, 0x00000000)  returns 0x00 (0000ms, 0594ms total)
T2AB8 000:992 JLINK_WriteReg(R11, 0x00000000)  returns 0x00 (0000ms, 0594ms total)
T2AB8 000:992 JLINK_WriteReg(R12, 0x00000000)  returns 0x00 (0001ms, 0595ms total)
T2AB8 000:993 JLINK_WriteReg(R13 (SP), 0x20001000)  returns 0x00 (0000ms, 0595ms total)
T2AB8 000:993 JLINK_WriteReg(R14, 0x20000001)  returns 0x00 (0000ms, 0595ms total)
T2AB8 000:993 JLINK_WriteReg(R15 (PC), 0x20000070)  returns 0x00 (0000ms, 0595ms total)
T2AB8 000:993 JLINK_WriteReg(XPSR, 0x01000000)  returns 0x00 (0000ms, 0595ms total)
T2AB8 000:993 JLINK_WriteReg(MSP, 0x20001000)  returns 0x00 (0000ms, 0595ms total)
T2AB8 000:993 JLINK_WriteReg(PSP, 0x20001000)  returns 0x00 (0000ms, 0595ms total)
T2AB8 000:993 JLINK_WriteReg(CFBP, 0x00000000)  returns 0x00 (0000ms, 0595ms total)
T2AB8 000:993 JLINK_SetBPEx(Addr = 0x20000000, Type = 0xFFFFFFF2) -- CPU_ReadMem(4 bytes @ 0x20000000) -- CPU_WriteMem(4 bytes @ 0x20000000) -- CPU_ReadMem(4 bytes @ 0x20000000) -- CPU_WriteMem(4 bytes @ 0x20000000) -- CPU_ReadMem(2 bytes @ 0x20000000)  returns 0x00000007 (0003ms, 0598ms total)
T2AB8 000:996 JLINK_Go() -- CPU_WriteMem(2 bytes @ 0x20000000) (0001ms, 0599ms total)
T2AB8 000:997 JLINK_IsHalted() -- CPU_ReadMem(2 bytes @ 0x20000000)  returns TRUE (0003ms, 0602ms total)
T2AB8 001:000 JLINK_ReadReg(R15 (PC))  returns 0x20000000 (0000ms, 0599ms total)
T2AB8 001:000 JLINK_ClrBPEx(BPHandle = 0x00000007)  returns 0x00 (0000ms, 0599ms total)
T2AB8 001:000 JLINK_ReadReg(R0)  returns 0x00000000 (0000ms, 0599ms total)
T2AB8 001:000 JLINK_WriteMem(0x200001D0, 0x0400 Bytes, ...) - Data: 50 39 01 20 11 03 00 08 89 0B 00 08 D1 07 00 08 ... -- CPU_WriteMem(1024 bytes @ 0x200001D0)  returns 0x400 (0007ms, 0606ms total)
T2AB8 001:007 JLINK_WriteReg(R0, 0x08000000)  returns 0x00 (0000ms, 0606ms total)
T2AB8 001:007 JLINK_WriteReg(R1, 0x00000400)  returns 0x00 (0000ms, 0606ms total)
T2AB8 001:007 JLINK_WriteReg(R2, 0x200001D0)  returns 0x00 (0000ms, 0606ms total)
T2AB8 001:007 JLINK_WriteReg(R3, 0x00000000)  returns 0x00 (0000ms, 0606ms total)
T2AB8 001:007 JLINK_WriteReg(R4, 0x00000000)  returns 0x00 (0000ms, 0606ms total)
T2AB8 001:007 JLINK_WriteReg(R5, 0x00000000)  returns 0x00 (0000ms, 0606ms total)
T2AB8 001:007 JLINK_WriteReg(R6, 0x00000000)  returns 0x00 (0000ms, 0606ms total)
T2AB8 001:007 JLINK_WriteReg(R7, 0x00000000)  returns 0x00 (0000ms, 0606ms total)
T2AB8 001:007 JLINK_WriteReg(R8, 0x00000000)  returns 0x00 (0000ms, 0606ms total)
T2AB8 001:007 JLINK_WriteReg(R9, 0x200001CC)  returns 0x00 (0000ms, 0606ms total)
T2AB8 001:007 JLINK_WriteReg(R10, 0x00000000)  returns 0x00 (0000ms, 0606ms total)
T2AB8 001:007 JLINK_WriteReg(R11, 0x00000000)  returns 0x00 (0000ms, 0606ms total)
T2AB8 001:007 JLINK_WriteReg(R12, 0x00000000)  returns 0x00 (0000ms, 0606ms total)
T2AB8 001:007 JLINK_WriteReg(R13 (SP), 0x20001000)  returns 0x00 (0000ms, 0606ms total)
T2AB8 001:007 JLINK_WriteReg(R14, 0x20000001)  returns 0x00 (0000ms, 0606ms total)
T2AB8 001:007 JLINK_WriteReg(R15 (PC), 0x20000158)  returns 0x00 (0000ms, 0606ms total)
T2AB8 001:007 JLINK_WriteReg(XPSR, 0x01000000)  returns 0x00 (0000ms, 0606ms total)
T2AB8 001:007 JLINK_WriteReg(MSP, 0x20001000)  returns 0x00 (0000ms, 0606ms total)
T2AB8 001:007 JLINK_WriteReg(PSP, 0x20001000)  returns 0x00 (0000ms, 0606ms total)
T2AB8 001:007 JLINK_WriteReg(CFBP, 0x00000000)  returns 0x00 (0000ms, 0606ms total)
T2AB8 001:007 JLINK_SetBPEx(Addr = 0x20000000, Type = 0xFFFFFFF2)  returns 0x00000008 (0000ms, 0606ms total)
T2AB8 001:007 JLINK_Go() (0001ms, 0607ms total)
T2AB8 001:008 JLINK_IsHalted()  returns FALSE (0000ms, 0607ms total)
T2AB8 001:015 JLINK_IsHalted()  returns FALSE (0000ms, 0607ms total)
T2AB8 001:017 JLINK_IsHalted()  returns FALSE (0001ms, 0608ms total)
T2AB8 001:019 JLINK_IsHalted()  returns FALSE (0001ms, 0608ms total)
T2AB8 001:021 JLINK_IsHalted()  returns FALSE (0000ms, 0607ms total)
T2AB8 001:023 JLINK_IsHalted() -- CPU_ReadMem(2 bytes @ 0x20000000)  returns TRUE (0003ms, 0610ms total)
T2AB8 001:026 JLINK_ReadReg(R15 (PC))  returns 0x20000000 (0000ms, 0607ms total)
T2AB8 001:026 JLINK_ClrBPEx(BPHandle = 0x00000008)  returns 0x00 (0000ms, 0607ms total)
T2AB8 001:026 JLINK_ReadReg(R0)  returns 0x00000000 (0000ms, 0607ms total)
T2AB8 001:027 JLINK_WriteMem(0x200001D0, 0x0400 Bytes, ...) - Data: 21 46 28 46 2E 60 FF F7 0B FF 60 B1 01 28 08 D0 ... -- CPU_WriteMem(1024 bytes @ 0x200001D0)  returns 0x400 (0007ms, 0614ms total)
T2AB8 001:034 JLINK_WriteReg(R0, 0x08000400)  returns 0x00 (0000ms, 0614ms total)
T2AB8 001:034 JLINK_WriteReg(R1, 0x00000400)  returns 0x00 (0000ms, 0614ms total)
T2AB8 001:034 JLINK_WriteReg(R2, 0x200001D0)  returns 0x00 (0000ms, 0614ms total)
T2AB8 001:034 JLINK_WriteReg(R3, 0x00000000)  returns 0x00 (0000ms, 0614ms total)
T2AB8 001:034 JLINK_WriteReg(R4, 0x00000000)  returns 0x00 (0000ms, 0614ms total)
T2AB8 001:034 JLINK_WriteReg(R5, 0x00000000)  returns 0x00 (0000ms, 0614ms total)
T2AB8 001:034 JLINK_WriteReg(R6, 0x00000000)  returns 0x00 (0000ms, 0614ms total)
T2AB8 001:034 JLINK_WriteReg(R7, 0x00000000)  returns 0x00 (0000ms, 0614ms total)
T2AB8 001:034 JLINK_WriteReg(R8, 0x00000000)  returns 0x00 (0000ms, 0614ms total)
T2AB8 001:034 JLINK_WriteReg(R9, 0x200001CC)  returns 0x00 (0000ms, 0614ms total)
T2AB8 001:034 JLINK_WriteReg(R10, 0x00000000)  returns 0x00 (0000ms, 0614ms total)
T2AB8 001:034 JLINK_WriteReg(R11, 0x00000000)  returns 0x00 (0000ms, 0614ms total)
T2AB8 001:034 JLINK_WriteReg(R12, 0x00000000)  returns 0x00 (0000ms, 0614ms total)
T2AB8 001:034 JLINK_WriteReg(R13 (SP), 0x20001000)  returns 0x00 (0000ms, 0614ms total)
T2AB8 001:034 JLINK_WriteReg(R14, 0x20000001)  returns 0x00 (0000ms, 0614ms total)
T2AB8 001:034 JLINK_WriteReg(R15 (PC), 0x20000158)  returns 0x00 (0000ms, 0614ms total)
T2AB8 001:034 JLINK_WriteReg(XPSR, 0x01000000)  returns 0x00 (0000ms, 0614ms total)
T2AB8 001:034 JLINK_WriteReg(MSP, 0x20001000)  returns 0x00 (0000ms, 0614ms total)
T2AB8 001:034 JLINK_WriteReg(PSP, 0x20001000)  returns 0x00 (0000ms, 0614ms total)
T2AB8 001:034 JLINK_WriteReg(CFBP, 0x00000000)  returns 0x00 (0000ms, 0614ms total)
T2AB8 001:034 JLINK_SetBPEx(Addr = 0x20000000, Type = 0xFFFFFFF2)  returns 0x00000009 (0000ms, 0614ms total)
T2AB8 001:034 JLINK_Go() (0002ms, 0616ms total)
T2AB8 001:036 JLINK_IsHalted()  returns FALSE (0000ms, 0616ms total)
T2AB8 001:038 JLINK_IsHalted()  returns FALSE (0000ms, 0616ms total)
T2AB8 001:040 JLINK_IsHalted()  returns FALSE (0000ms, 0616ms total)
T2AB8 001:042 JLINK_IsHalted()  returns FALSE (0000ms, 0616ms total)
T2AB8 001:044 JLINK_IsHalted()  returns FALSE (0000ms, 0616ms total)
T2AB8 001:046 JLINK_IsHalted()  returns FALSE (0000ms, 0616ms total)
T2AB8 001:048 JLINK_IsHalted()  returns FALSE (0001ms, 0617ms total)
T2AB8 001:051 JLINK_IsHalted() -- CPU_ReadMem(2 bytes @ 0x20000000)  returns TRUE (0003ms, 0619ms total)
T2AB8 001:054 JLINK_ReadReg(R15 (PC))  returns 0x20000000 (0000ms, 0616ms total)
T2AB8 001:054 JLINK_ClrBPEx(BPHandle = 0x00000009)  returns 0x00 (0000ms, 0616ms total)
T2AB8 001:054 JLINK_ReadReg(R0)  returns 0x00000000 (0000ms, 0616ms total)
T2AB8 001:054 JLINK_WriteMem(0x200001D0, 0x0400 Bytes, ...) - Data: 80 61 0A 48 01 F0 DD FB 05 20 01 F0 33 F9 4F F4 ... -- CPU_WriteMem(1024 bytes @ 0x200001D0)  returns 0x400 (0008ms, 0624ms total)
T2AB8 001:062 JLINK_WriteReg(R0, 0x08000800)  returns 0x00 (0000ms, 0624ms total)
T2AB8 001:062 JLINK_WriteReg(R1, 0x00000400)  returns 0x00 (0000ms, 0624ms total)
T2AB8 001:062 JLINK_WriteReg(R2, 0x200001D0)  returns 0x00 (0000ms, 0624ms total)
T2AB8 001:062 JLINK_WriteReg(R3, 0x00000000)  returns 0x00 (0000ms, 0624ms total)
T2AB8 001:062 JLINK_WriteReg(R4, 0x00000000)  returns 0x00 (0000ms, 0624ms total)
T2AB8 001:062 JLINK_WriteReg(R5, 0x00000000)  returns 0x00 (0000ms, 0624ms total)
T2AB8 001:062 JLINK_WriteReg(R6, 0x00000000)  returns 0x00 (0000ms, 0624ms total)
T2AB8 001:062 JLINK_WriteReg(R7, 0x00000000)  returns 0x00 (0000ms, 0624ms total)
T2AB8 001:062 JLINK_WriteReg(R8, 0x00000000)  returns 0x00 (0000ms, 0624ms total)
T2AB8 001:062 JLINK_WriteReg(R9, 0x200001CC)  returns 0x00 (0000ms, 0624ms total)
T2AB8 001:062 JLINK_WriteReg(R10, 0x00000000)  returns 0x00 (0000ms, 0624ms total)
T2AB8 001:062 JLINK_WriteReg(R11, 0x00000000)  returns 0x00 (0000ms, 0624ms total)
T2AB8 001:062 JLINK_WriteReg(R12, 0x00000000)  returns 0x00 (0000ms, 0624ms total)
T2AB8 001:062 JLINK_WriteReg(R13 (SP), 0x20001000)  returns 0x00 (0000ms, 0624ms total)
T2AB8 001:062 JLINK_WriteReg(R14, 0x20000001)  returns 0x00 (0000ms, 0624ms total)
T2AB8 001:062 JLINK_WriteReg(R15 (PC), 0x20000158)  returns 0x00 (0000ms, 0624ms total)
T2AB8 001:062 JLINK_WriteReg(XPSR, 0x01000000)  returns 0x00 (0000ms, 0624ms total)
T2AB8 001:062 JLINK_WriteReg(MSP, 0x20001000)  returns 0x00 (0000ms, 0624ms total)
T2AB8 001:062 JLINK_WriteReg(PSP, 0x20001000)  returns 0x00 (0000ms, 0624ms total)
T2AB8 001:062 JLINK_WriteReg(CFBP, 0x00000000)  returns 0x00 (0000ms, 0624ms total)
T2AB8 001:062 JLINK_SetBPEx(Addr = 0x20000000, Type = 0xFFFFFFF2)  returns 0x0000000A (0000ms, 0624ms total)
T2AB8 001:062 JLINK_Go() (0001ms, 0625ms total)
T2AB8 001:064 JLINK_IsHalted()  returns FALSE (0000ms, 0626ms total)
T2AB8 001:070 JLINK_IsHalted()  returns FALSE (0001ms, 0627ms total)
T2AB8 001:073 JLINK_IsHalted()  returns FALSE (0001ms, 0627ms total)
T2AB8 001:075 JLINK_IsHalted()  returns FALSE (0001ms, 0627ms total)
T2AB8 001:077 JLINK_IsHalted()  returns FALSE (0001ms, 0627ms total)
T2AB8 001:080 JLINK_IsHalted() -- CPU_ReadMem(2 bytes @ 0x20000000)  returns TRUE (0003ms, 0629ms total)
T2AB8 001:083 JLINK_ReadReg(R15 (PC))  returns 0x20000000 (0000ms, 0626ms total)
T2AB8 001:083 JLINK_ClrBPEx(BPHandle = 0x0000000A)  returns 0x00 (0000ms, 0626ms total)
T2AB8 001:083 JLINK_ReadReg(R0)  returns 0x00000000 (0000ms, 0626ms total)
T2AB8 001:083 JLINK_WriteMem(0x200001D0, 0x0400 Bytes, ...) - Data: 40 EA 01 20 00 B2 AD F8 02 00 9D F8 10 00 9D F8 ... -- CPU_WriteMem(1024 bytes @ 0x200001D0)  returns 0x400 (0007ms, 0633ms total)
T2AB8 001:090 JLINK_WriteReg(R0, 0x08000C00)  returns 0x00 (0000ms, 0633ms total)
T2AB8 001:090 JLINK_WriteReg(R1, 0x00000400)  returns 0x00 (0000ms, 0633ms total)
T2AB8 001:090 JLINK_WriteReg(R2, 0x200001D0)  returns 0x00 (0000ms, 0633ms total)
T2AB8 001:090 JLINK_WriteReg(R3, 0x00000000)  returns 0x00 (0000ms, 0633ms total)
T2AB8 001:090 JLINK_WriteReg(R4, 0x00000000)  returns 0x00 (0000ms, 0633ms total)
T2AB8 001:090 JLINK_WriteReg(R5, 0x00000000)  returns 0x00 (0000ms, 0633ms total)
T2AB8 001:090 JLINK_WriteReg(R6, 0x00000000)  returns 0x00 (0000ms, 0633ms total)
T2AB8 001:090 JLINK_WriteReg(R7, 0x00000000)  returns 0x00 (0000ms, 0633ms total)
T2AB8 001:090 JLINK_WriteReg(R8, 0x00000000)  returns 0x00 (0000ms, 0633ms total)
T2AB8 001:090 JLINK_WriteReg(R9, 0x200001CC)  returns 0x00 (0000ms, 0633ms total)
T2AB8 001:090 JLINK_WriteReg(R10, 0x00000000)  returns 0x00 (0000ms, 0633ms total)
T2AB8 001:090 JLINK_WriteReg(R11, 0x00000000)  returns 0x00 (0000ms, 0633ms total)
T2AB8 001:090 JLINK_WriteReg(R12, 0x00000000)  returns 0x00 (0000ms, 0633ms total)
T2AB8 001:090 JLINK_WriteReg(R13 (SP), 0x20001000)  returns 0x00 (0000ms, 0633ms total)
T2AB8 001:090 JLINK_WriteReg(R14, 0x20000001)  returns 0x00 (0000ms, 0633ms total)
T2AB8 001:090 JLINK_WriteReg(R15 (PC), 0x20000158)  returns 0x00 (0000ms, 0633ms total)
T2AB8 001:090 JLINK_WriteReg(XPSR, 0x01000000)  returns 0x00 (0000ms, 0633ms total)
T2AB8 001:090 JLINK_WriteReg(MSP, 0x20001000)  returns 0x00 (0000ms, 0633ms total)
T2AB8 001:090 JLINK_WriteReg(PSP, 0x20001000)  returns 0x00 (0000ms, 0633ms total)
T2AB8 001:090 JLINK_WriteReg(CFBP, 0x00000000)  returns 0x00 (0000ms, 0633ms total)
T2AB8 001:090 JLINK_SetBPEx(Addr = 0x20000000, Type = 0xFFFFFFF2)  returns 0x0000000B (0000ms, 0633ms total)
T2AB8 001:090 JLINK_Go() (0002ms, 0635ms total)
T2AB8 001:092 JLINK_IsHalted()  returns FALSE (0001ms, 0636ms total)
T2AB8 001:094 JLINK_IsHalted()  returns FALSE (0000ms, 0635ms total)
T2AB8 001:097 JLINK_IsHalted()  returns FALSE (0000ms, 0635ms total)
T2AB8 001:099 JLINK_IsHalted()  returns FALSE (0000ms, 0635ms total)
T2AB8 001:104 JLINK_IsHalted()  returns FALSE (0000ms, 0635ms total)
T2AB8 001:107 JLINK_IsHalted() -- CPU_ReadMem(2 bytes @ 0x20000000)  returns TRUE (0002ms, 0637ms total)
T2AB8 001:109 JLINK_ReadReg(R15 (PC))  returns 0x20000000 (0000ms, 0635ms total)
T2AB8 001:109 JLINK_ClrBPEx(BPHandle = 0x0000000B)  returns 0x00 (0000ms, 0635ms total)
T2AB8 001:109 JLINK_ReadReg(R0)  returns 0x00000000 (0000ms, 0635ms total)
T2AB8 001:112 JLINK_WriteMem(0x200001D0, 0x0400 Bytes, ...) - Data: 58 DD 9D ED 06 0B 51 EC 10 0B FF F7 B3 FF 04 28 ... -- CPU_WriteMem(1024 bytes @ 0x200001D0)  returns 0x400 (0007ms, 0642ms total)
T2AB8 001:119 JLINK_WriteReg(R0, 0x08001000)  returns 0x00 (0000ms, 0642ms total)
T2AB8 001:119 JLINK_WriteReg(R1, 0x00000400)  returns 0x00 (0000ms, 0642ms total)
T2AB8 001:119 JLINK_WriteReg(R2, 0x200001D0)  returns 0x00 (0000ms, 0642ms total)
T2AB8 001:119 JLINK_WriteReg(R3, 0x00000000)  returns 0x00 (0000ms, 0642ms total)
T2AB8 001:119 JLINK_WriteReg(R4, 0x00000000)  returns 0x00 (0000ms, 0642ms total)
T2AB8 001:119 JLINK_WriteReg(R5, 0x00000000)  returns 0x00 (0000ms, 0642ms total)
T2AB8 001:119 JLINK_WriteReg(R6, 0x00000000)  returns 0x00 (0000ms, 0642ms total)
T2AB8 001:119 JLINK_WriteReg(R7, 0x00000000)  returns 0x00 (0000ms, 0642ms total)
T2AB8 001:119 JLINK_WriteReg(R8, 0x00000000)  returns 0x00 (0000ms, 0642ms total)
T2AB8 001:119 JLINK_WriteReg(R9, 0x200001CC)  returns 0x00 (0000ms, 0642ms total)
T2AB8 001:119 JLINK_WriteReg(R10, 0x00000000)  returns 0x00 (0000ms, 0642ms total)
T2AB8 001:119 JLINK_WriteReg(R11, 0x00000000)  returns 0x00 (0000ms, 0642ms total)
T2AB8 001:119 JLINK_WriteReg(R12, 0x00000000)  returns 0x00 (0000ms, 0642ms total)
T2AB8 001:119 JLINK_WriteReg(R13 (SP), 0x20001000)  returns 0x00 (0000ms, 0642ms total)
T2AB8 001:119 JLINK_WriteReg(R14, 0x20000001)  returns 0x00 (0000ms, 0642ms total)
T2AB8 001:119 JLINK_WriteReg(R15 (PC), 0x20000158)  returns 0x00 (0000ms, 0642ms total)
T2AB8 001:119 JLINK_WriteReg(XPSR, 0x01000000)  returns 0x00 (0000ms, 0642ms total)
T2AB8 001:119 JLINK_WriteReg(MSP, 0x20001000)  returns 0x00 (0000ms, 0642ms total)
T2AB8 001:119 JLINK_WriteReg(PSP, 0x20001000)  returns 0x00 (0000ms, 0642ms total)
T2AB8 001:119 JLINK_WriteReg(CFBP, 0x00000000)  returns 0x00 (0000ms, 0642ms total)
T2AB8 001:119 JLINK_SetBPEx(Addr = 0x20000000, Type = 0xFFFFFFF2)  returns 0x0000000C (0000ms, 0642ms total)
T2AB8 001:119 JLINK_Go() (0002ms, 0644ms total)
T2AB8 001:121 JLINK_IsHalted()  returns FALSE (0001ms, 0645ms total)
T2AB8 001:125 JLINK_IsHalted()  returns FALSE (0000ms, 0644ms total)
T2AB8 001:128 JLINK_IsHalted()  returns FALSE (0000ms, 0644ms total)
T2AB8 001:131 JLINK_IsHalted()  returns FALSE (0000ms, 0644ms total)
T2AB8 001:133 JLINK_IsHalted()  returns FALSE (0001ms, 0645ms total)
T2AB8 001:135 JLINK_IsHalted() -- CPU_ReadMem(2 bytes @ 0x20000000)  returns TRUE (0003ms, 0647ms total)
T2AB8 001:138 JLINK_ReadReg(R15 (PC))  returns 0x20000000 (0000ms, 0644ms total)
T2AB8 001:138 JLINK_ClrBPEx(BPHandle = 0x0000000C)  returns 0x00 (0000ms, 0644ms total)
T2AB8 001:138 JLINK_ReadReg(R0)  returns 0x00000000 (0000ms, 0644ms total)
T2AB8 001:138 JLINK_WriteMem(0x200001D0, 0x0400 Bytes, ...) - Data: 51 EC 10 0B 0D D0 04 F0 A7 FE 53 EC 18 2B 04 F0 ... -- CPU_WriteMem(1024 bytes @ 0x200001D0)  returns 0x400 (0007ms, 0651ms total)
T2AB8 001:145 JLINK_WriteReg(R0, 0x08001400)  returns 0x00 (0000ms, 0651ms total)
T2AB8 001:145 JLINK_WriteReg(R1, 0x00000400)  returns 0x00 (0000ms, 0651ms total)
T2AB8 001:145 JLINK_WriteReg(R2, 0x200001D0)  returns 0x00 (0000ms, 0651ms total)
T2AB8 001:145 JLINK_WriteReg(R3, 0x00000000)  returns 0x00 (0000ms, 0651ms total)
T2AB8 001:145 JLINK_WriteReg(R4, 0x00000000)  returns 0x00 (0000ms, 0651ms total)
T2AB8 001:145 JLINK_WriteReg(R5, 0x00000000)  returns 0x00 (0000ms, 0651ms total)
T2AB8 001:145 JLINK_WriteReg(R6, 0x00000000)  returns 0x00 (0000ms, 0651ms total)
T2AB8 001:145 JLINK_WriteReg(R7, 0x00000000)  returns 0x00 (0000ms, 0651ms total)
T2AB8 001:145 JLINK_WriteReg(R8, 0x00000000)  returns 0x00 (0000ms, 0651ms total)
T2AB8 001:145 JLINK_WriteReg(R9, 0x200001CC)  returns 0x00 (0000ms, 0651ms total)
T2AB8 001:145 JLINK_WriteReg(R10, 0x00000000)  returns 0x00 (0000ms, 0651ms total)
T2AB8 001:145 JLINK_WriteReg(R11, 0x00000000)  returns 0x00 (0000ms, 0651ms total)
T2AB8 001:145 JLINK_WriteReg(R12, 0x00000000)  returns 0x00 (0000ms, 0651ms total)
T2AB8 001:145 JLINK_WriteReg(R13 (SP), 0x20001000)  returns 0x00 (0000ms, 0651ms total)
T2AB8 001:145 JLINK_WriteReg(R14, 0x20000001)  returns 0x00 (0000ms, 0651ms total)
T2AB8 001:145 JLINK_WriteReg(R15 (PC), 0x20000158)  returns 0x00 (0000ms, 0651ms total)
T2AB8 001:145 JLINK_WriteReg(XPSR, 0x01000000)  returns 0x00 (0000ms, 0651ms total)
T2AB8 001:145 JLINK_WriteReg(MSP, 0x20001000)  returns 0x00 (0000ms, 0651ms total)
T2AB8 001:145 JLINK_WriteReg(PSP, 0x20001000)  returns 0x00 (0000ms, 0651ms total)
T2AB8 001:145 JLINK_WriteReg(CFBP, 0x00000000)  returns 0x00 (0000ms, 0651ms total)
T2AB8 001:145 JLINK_SetBPEx(Addr = 0x20000000, Type = 0xFFFFFFF2)  returns 0x0000000D (0000ms, 0651ms total)
T2AB8 001:145 JLINK_Go() (0003ms, 0654ms total)
T2AB8 001:148 JLINK_IsHalted()  returns FALSE (0000ms, 0654ms total)
T2AB8 001:150 JLINK_IsHalted()  returns FALSE (0000ms, 0654ms total)
T2AB8 001:151 JLINK_IsHalted()  returns FALSE (0001ms, 0655ms total)
T2AB8 001:153 JLINK_IsHalted()  returns FALSE (0001ms, 0655ms total)
T2AB8 001:155 JLINK_IsHalted()  returns FALSE (0000ms, 0654ms total)
T2AB8 001:157 JLINK_IsHalted()  returns FALSE (0001ms, 0655ms total)
T2AB8 001:159 JLINK_IsHalted()  returns FALSE (0001ms, 0655ms total)
T2AB8 001:161 JLINK_IsHalted() -- CPU_ReadMem(2 bytes @ 0x20000000)  returns TRUE (0003ms, 0657ms total)
T2AB8 001:164 JLINK_ReadReg(R15 (PC))  returns 0x20000000 (0000ms, 0654ms total)
T2AB8 001:164 JLINK_ClrBPEx(BPHandle = 0x0000000D)  returns 0x00 (0000ms, 0654ms total)
T2AB8 001:164 JLINK_ReadReg(R0)  returns 0x00000000 (0000ms, 0654ms total)
T2AB8 001:165 JLINK_WriteMem(0x200001D0, 0x0400 Bytes, ...) - Data: 02 F0 4B FA 60 1C C4 B2 04 2C F5 DB 75 E0 40 F2 ... -- CPU_WriteMem(1024 bytes @ 0x200001D0)  returns 0x400 (0008ms, 0662ms total)
T2AB8 001:173 JLINK_WriteReg(R0, 0x08001800)  returns 0x00 (0000ms, 0662ms total)
T2AB8 001:173 JLINK_WriteReg(R1, 0x00000400)  returns 0x00 (0000ms, 0662ms total)
T2AB8 001:173 JLINK_WriteReg(R2, 0x200001D0)  returns 0x00 (0000ms, 0662ms total)
T2AB8 001:173 JLINK_WriteReg(R3, 0x00000000)  returns 0x00 (0000ms, 0662ms total)
T2AB8 001:173 JLINK_WriteReg(R4, 0x00000000)  returns 0x00 (0000ms, 0662ms total)
T2AB8 001:173 JLINK_WriteReg(R5, 0x00000000)  returns 0x00 (0000ms, 0662ms total)
T2AB8 001:173 JLINK_WriteReg(R6, 0x00000000)  returns 0x00 (0000ms, 0662ms total)
T2AB8 001:173 JLINK_WriteReg(R7, 0x00000000)  returns 0x00 (0000ms, 0662ms total)
T2AB8 001:173 JLINK_WriteReg(R8, 0x00000000)  returns 0x00 (0000ms, 0662ms total)
T2AB8 001:173 JLINK_WriteReg(R9, 0x200001CC)  returns 0x00 (0000ms, 0662ms total)
T2AB8 001:173 JLINK_WriteReg(R10, 0x00000000)  returns 0x00 (0000ms, 0662ms total)
T2AB8 001:173 JLINK_WriteReg(R11, 0x00000000)  returns 0x00 (0000ms, 0662ms total)
T2AB8 001:173 JLINK_WriteReg(R12, 0x00000000)  returns 0x00 (0000ms, 0662ms total)
T2AB8 001:173 JLINK_WriteReg(R13 (SP), 0x20001000)  returns 0x00 (0000ms, 0662ms total)
T2AB8 001:173 JLINK_WriteReg(R14, 0x20000001)  returns 0x00 (0000ms, 0662ms total)
T2AB8 001:173 JLINK_WriteReg(R15 (PC), 0x20000158)  returns 0x00 (0000ms, 0662ms total)
T2AB8 001:173 JLINK_WriteReg(XPSR, 0x01000000)  returns 0x00 (0000ms, 0662ms total)
T2AB8 001:173 JLINK_WriteReg(MSP, 0x20001000)  returns 0x00 (0000ms, 0662ms total)
T2AB8 001:173 JLINK_WriteReg(PSP, 0x20001000)  returns 0x00 (0000ms, 0662ms total)
T2AB8 001:173 JLINK_WriteReg(CFBP, 0x00000000)  returns 0x00 (0000ms, 0662ms total)
T2AB8 001:174 JLINK_SetBPEx(Addr = 0x20000000, Type = 0xFFFFFFF2)  returns 0x0000000E (0000ms, 0663ms total)
T2AB8 001:174 JLINK_Go() (0001ms, 0664ms total)
T2AB8 001:175 JLINK_IsHalted()  returns FALSE (0001ms, 0665ms total)
T2AB8 001:177 JLINK_IsHalted()  returns FALSE (0001ms, 0665ms total)
T2AB8 001:179 JLINK_IsHalted()  returns FALSE (0000ms, 0664ms total)
T2AB8 001:182 JLINK_IsHalted()  returns FALSE (0000ms, 0664ms total)
T2AB8 001:185 JLINK_IsHalted()  returns FALSE (0000ms, 0664ms total)
T2AB8 001:187 JLINK_IsHalted()  returns FALSE (0000ms, 0664ms total)
T2AB8 001:190 JLINK_IsHalted() -- CPU_ReadMem(2 bytes @ 0x20000000)  returns TRUE (0003ms, 0667ms total)
T2AB8 001:193 JLINK_ReadReg(R15 (PC))  returns 0x20000000 (0000ms, 0664ms total)
